
T1B70 000:349 SEGGER J-Link V4.94h Log File (0000ms, 0273ms total)
T1B70 000:349 DLL Compiled: Nov 28 2014 17:53:34 (0000ms, 0273ms total)
T1B70 000:349 Logging started @ 2020-05-11 14:43 (0000ms, 0273ms total)
T1B70 000:349 JLINK_SetWarnOutHandler(...) (0000ms, 0273ms total)
T1B70 000:349 JLINK_OpenEx(...)
Firmware: J-Link V9 compiled Sep  1 2016 18:29:50
Hardware: V9.70
S/N: 59700618
Feature(s): RDI, FlashBP, FlashDL, JFlash, GDB  returns O.K. (0266ms, 0539ms total)
T1B70 000:615 JLINK_SetErrorOutHandler(...) (0000ms, 0539ms total)
T1B70 000:615 JLINK_ExecCommand("ProjectFile = "E:\CH-K-Lib\Project\超核K60-K64开发板-基础例程\FF - 大同改造191031\MDK\JLinkSettings.ini"", ...)  returns 0x00 (0000ms, 0539ms total)
T1B70 000:618 JLINK_ExecCommand("Device = MK64FX512xxx12", ...)Device "MK64FX512XXX12" selected (640 KB flash, 192 KB RAM).  returns 0x00 (0002ms, 0541ms total)
T1B70 000:620 JLINK_ExecCommand("DisableConnectionTimeout", ...)  returns 0x01 (0000ms, 0541ms total)
T1B70 000:620 JLINK_GetHardwareVersion()  returns 0x17AE8 (0000ms, 0541ms total)
T1B70 000:620 JLINK_GetDLLVersion()  returns 49408 (0000ms, 0541ms total)
T1B70 000:620 JLINK_GetFirmwareString(...) (0000ms, 0541ms total)
T1B70 000:630 JLINK_GetDLLVersion()  returns 49408 (0000ms, 0541ms total)
T1B70 000:630 JLINK_GetCompileDateTime() (0000ms, 0541ms total)
T1B70 000:637 JLINK_GetFirmwareString(...) (0000ms, 0541ms total)
T1B70 000:641 JLINK_GetHardwareVersion()  returns 0x17AE8 (0000ms, 0541ms total)
T1B70 000:681 JLINK_TIF_Select(JLINKARM_TIF_JTAG)  returns 0x00 (0001ms, 0542ms total)
T1B70 000:682 JLINK_SetSpeed(10000) (0000ms, 0542ms total)
T1B70 000:682 JLINK_GetIdData(...) >0x2F8 JTAG>TotalIRLen = 4, IRPrint = 0x01 >0x30 JTAG> >0x210 JTAG> >0x40 JTAG> >0x40 JTAG> >0x40 JTAG> >0x30 JTAG> >0x40 JTAG> >0x40 JTAG> >0x40 JTAG> >0x40 JTAG> >0x40 JTAG> >0x40 JTAG> >0x40 JTAG> >0x40 JTAG> >0x40 JTAG> >0x40 JTAG> >0x40 JTAG> >0x40 JTAG> >0x40 JTAG> >0x40 JTAG> >0x40 JTAG> >0x40 JTAG> >0x40 JTAG> >0x40 JTAG> >0x40 JTAG> >0x40 JTAG> >0x40 JTAG> >0x2F8 JTAG>TotalIRLen = 4, IRPrint = 0x01 >0x30 JTAG> >0x210 JTAG> >0x70 JTAG> >0x40 JTAG> >0x40 JTAG>
 >0x40 JTAG> >0x48 JTAG> >0x78 JTAG> >0x40 JTAG> >0x30 JTAG> >0x40 JTAG> >0x40 JTAG> >0x30 JTAG> >0x40 JTAG> >0x48 JTAG>Found Cortex-M4 r0p1, Little endian. -- CPU_WriteMem(4 bytes @ 0xE0002000) -- CPU_ReadMem(4 bytes @ 0xE000EDF0) -- CPU_ReadMem(4 bytes @ 0xE0002000)FPUnit: 6 code (BP) slots and 2 literal slots -- CPU_ReadMem(4 bytes @ 0xE000EDFC) -- CPU_WriteMem(4 bytes @ 0xE000EDFC) -- CPU_ReadMem(4 bytes @ 0xE0001000) -- CPU_WriteMem(4 bytes @ 0xE0001000) -- CPU_ReadMem(4 bytes @ 0xE000ED88)
 -- CPU_WriteMem(4 bytes @ 0xE000ED88) -- CPU_ReadMem(4 bytes @ 0xE000ED88) -- CPU_WriteMem(4 bytes @ 0xE000ED88) -- CPU_ReadMem(4 bytes @ 0xE00FF010)TPIU fitted. -- CPU_ReadMem(4 bytes @ 0xE00FF014)ETM fitted. -- CPU_ReadMem(4 bytes @ 0xE00FF018) -- CPU_ReadMem(4 bytes @ 0xE0042FE0) -- CPU_ReadMem(4 bytes @ 0xE0042FE4)ETB present. -- CPU_ReadMem(4 bytes @ 0xE00FF01C) -- CPU_ReadMem(4 bytes @ 0xE0043FE0) -- CPU_ReadMem(4 bytes @ 0xE0043FE4)CSTF present. -- CPU_ReadMem(4 bytes @ 0xE00FF020)
 -- CPU_ReadMem(2 bytes @ 0x40052000) -- CPU_ReadMem(8 bytes @ 0x20000000) -- CPU_WriteMem(8 bytes @ 0x20000000) -- CPU_WriteMem(8 bytes @ 0x20000000) ScanLen=4 NumDevices=1 aId[0]=0x4BA00477 aIrRead[0]=0 aScanLen[0]=0 aScanRead[0]=0 (0045ms, 0587ms total)
T1B70 000:727 JLINK_JTAG_GetDeviceID(DeviceIndex = 0)  returns 0x4BA00477 (0000ms, 0587ms total)
T1B70 000:727 JLINK_JTAG_GetDeviceInfo(DeviceIndex = 0)  returns 0x00 (0000ms, 0587ms total)
T1B70 000:727 JLINK_GetDeviceFamily()  returns 14 (0000ms, 0587ms total)
T1B70 000:730 JLINK_ReadMem (0xE00FFFF0, 0x0010 Bytes, ...) -- CPU_ReadMem(16 bytes @ 0xE00FFFF0) - Data: 0D 00 00 00 10 00 00 00 05 00 00 00 B1 00 00 00  returns 0x00 (0000ms, 0587ms total)
T1B70 000:730 JLINK_ReadMem (0xE00FFFD0, 0x0020 Bytes, ...) -- CPU_ReadMem(32 bytes @ 0xE00FFFD0) - Data: 04 00 00 00 00 00 00 00 00 00 00 00 00 00 00 00 ...  returns 0x00 (0000ms, 0587ms total)
T1B70 000:730 JLINK_ReadMem (0xE00FF000, 0x0018 Bytes, ...) -- CPU_ReadMem(24 bytes @ 0xE00FF000) - Data: 03 F0 F0 FF 03 20 F0 FF 03 30 F0 FF 03 10 F0 FF ...  returns 0x00 (0001ms, 0588ms total)
T1B70 000:731 JLINK_ReadMemU32(0xE000ED00, 0x0001 Items, ...) -- CPU_ReadMem(4 bytes @ 0xE000ED00) - Data: 41 C2 0F 41  returns 0x01 (0000ms, 0588ms total)
T1B70 000:731 JLINK_ReadMemU32(0xE000EF40, 0x0001 Items, ...) -- CPU_ReadMem(4 bytes @ 0xE000EF40) - Data: 21 00 11 10  returns 0x01 (0000ms, 0588ms total)
T1B70 000:731 JLINK_ReadMemU32(0xE000EF44, 0x0001 Items, ...) -- CPU_ReadMem(4 bytes @ 0xE000EF44) - Data: 11 00 00 11  returns 0x01 (0001ms, 0589ms total)
T1B70 000:732 JLINK_SetResetType(JLINKARM_RESET_TYPE_NORMAL)  returns JLINKARM_RESET_TYPE_SOFT (0000ms, 0589ms total)
T1B70 000:732 JLINK_Reset() -- CPU_WriteMem(4 bytes @ 0xE000EDF0) -- CPU_WriteMem(4 bytes @ 0xE000EDFC) -- CPU_WriteMem(4 bytes @ 0xE000ED0C) -- CPU_ReadMem(4 bytes @ 0xE000EDF0) -- CPU_ReadMem(4 bytes @ 0xE000EDF0) -- CPU_WriteMem(4 bytes @ 0xE000EDF0) -- CPU_WriteMem(4 bytes @ 0xE000EDFC) -- CPU is running -- CPU_ReadMem(4 bytes @ 0xE000EDF0) >0x78 JTAG> >0x40 JTAG> >0x30 JTAG> >0x40 JTAG> >0x48 JTAG> >0x40 JTAG> -- CPU_ReadMem(8 bytes @ 0x20000000) -- CPU_WriteMem(8 bytes @ 0x20000000) >0x2C8 JTAG>
 >0x1E8 JTAG> >0x1E8 JTAG> >0x1E8 JTAG> >0x1E8 JTAG> >0x218 JTAG> >0x218 JTAG> >0x170 JTAG> >0x1598 JTAG> -- CPU_WriteMem(8 bytes @ 0x20000000) -- CPU_WriteMem(4 bytes @ 0xE000EDFC) -- CPU_WriteMem(4 bytes @ 0xE0001028) -- CPU_WriteMem(4 bytes @ 0xE0001038) -- CPU_WriteMem(4 bytes @ 0xE0001048) -- CPU_WriteMem(4 bytes @ 0xE0001058) -- CPU_WriteMem(4 bytes @ 0xE0002000) -- CPU_ReadMem(4 bytes @ 0xE000EDFC) -- CPU_ReadMem(4 bytes @ 0xE0001000) (0027ms, 0616ms total)
T1B70 000:759 JLINK_Halt()  returns 0x00 (0000ms, 0616ms total)
T1B70 000:759 JLINK_IsHalted()  returns TRUE (0000ms, 0616ms total)
T1B70 000:759 JLINK_ReadMemU32(0xE000EDF0, 0x0001 Items, ...) -- CPU_ReadMem(4 bytes @ 0xE000EDF0) - Data: 03 00 03 00  returns 0x01 (0000ms, 0616ms total)
T1B70 000:759 JLINK_WriteU32(0xE000EDF0, 0xA05F0003) -- CPU_WriteMem(4 bytes @ 0xE000EDF0)  returns 0x00 (0001ms, 0617ms total)
T1B70 000:760 JLINK_WriteU32(0xE000EDFC, 0x01000000) -- CPU_WriteMem(4 bytes @ 0xE000EDFC)  returns 0x00 (0000ms, 0617ms total)
T1B70 000:771 JLINK_GetHWStatus(...)  returns 0x00 (0000ms, 0617ms total)
T1B70 000:778 JLINK_GetNumBPUnits(Type = 0xFFFFFF00)  returns 0x06 (0000ms, 0617ms total)
T1B70 000:778 JLINK_GetNumBPUnits(Type = 0xF0)  returns 0x2000 (0000ms, 0617ms total)
T1B70 000:778 JLINK_GetNumWPUnits()  returns 0x04 (0000ms, 0617ms total)
T1B70 000:785 JLINK_GetSpeed()  returns 0x2710 (0000ms, 0617ms total)
T1B70 000:790 JLINK_ReadMemU32(0xE000E004, 0x0001 Items, ...) -- CPU_ReadMem(4 bytes @ 0xE000E004) - Data: 02 00 00 00  returns 0x01 (0002ms, 0619ms total)
T1B70 000:792 JLINK_ReadMemU32(0xE000E004, 0x0001 Items, ...) -- CPU_ReadMem(4 bytes @ 0xE000E004) - Data: 02 00 00 00  returns 0x01 (0000ms, 0619ms total)
T1B70 000:792 JLINK_WriteMem(0xE0001000, 0x001C Bytes, ...) - Data: 01 00 00 00 00 00 00 00 00 00 00 00 00 00 00 00 ... -- CPU_WriteMem(28 bytes @ 0xE0001000)  returns 0x1C (0001ms, 0620ms total)
T1B70 000:793 JLINK_ReadMem (0xE0001000, 0x001C Bytes, ...) -- CPU_ReadMem(28 bytes @ 0xE0001000) - Data: 01 00 00 40 00 00 00 00 00 00 00 00 00 00 00 00 ...  returns 0x00 (0000ms, 0620ms total)
T1B70 000:793 JLINK_Halt()  returns 0x00 (0000ms, 0620ms total)
T1B70 000:793 JLINK_IsHalted()  returns TRUE (0000ms, 0620ms total)
T1B70 000:795 JLINK_WriteMem(0x20000000, 0x0510 Bytes, ...) - Data: 00 BE 0A E0 0D 78 2D 06 68 40 08 24 40 00 00 D3 ... -- CPU_WriteMem(1296 bytes @ 0x20000000)  returns 0x510 (0005ms, 0625ms total)
T1B70 000:800 JLINK_WriteReg(R0, 0x00000000)  returns 0x00 (0000ms, 0625ms total)
T1B70 000:800 JLINK_WriteReg(R1, 0x02FAF080)  returns 0x00 (0000ms, 0625ms total)
T1B70 000:800 JLINK_WriteReg(R2, 0x00000001)  returns 0x00 (0000ms, 0625ms total)
T1B70 000:800 JLINK_WriteReg(R3, 0x00000000)  returns 0x00 (0000ms, 0625ms total)
T1B70 000:800 JLINK_WriteReg(R4, 0x00000000)  returns 0x00 (0000ms, 0625ms total)
T1B70 000:800 JLINK_WriteReg(R5, 0x00000000)  returns 0x00 (0000ms, 0625ms total)
T1B70 000:800 JLINK_WriteReg(R6, 0x00000000)  returns 0x00 (0000ms, 0625ms total)
T1B70 000:800 JLINK_WriteReg(R7, 0x00000000)  returns 0x00 (0000ms, 0625ms total)
T1B70 000:800 JLINK_WriteReg(R8, 0x00000000)  returns 0x00 (0000ms, 0625ms total)
T1B70 000:800 JLINK_WriteReg(R9, 0x20000508)  returns 0x00 (0000ms, 0625ms total)
T1B70 000:800 JLINK_WriteReg(R10, 0x00000000)  returns 0x00 (0000ms, 0625ms total)
T1B70 000:800 JLINK_WriteReg(R11, 0x00000000)  returns 0x00 (0000ms, 0625ms total)
T1B70 000:800 JLINK_WriteReg(R12, 0x00000000)  returns 0x00 (0000ms, 0625ms total)
T1B70 000:800 JLINK_WriteReg(R13 (SP), 0x20001000)  returns 0x00 (0000ms, 0625ms total)
T1B70 000:800 JLINK_WriteReg(R14, 0x20000001)  returns 0x00 (0000ms, 0625ms total)
T1B70 000:800 JLINK_WriteReg(R15 (PC), 0x20000020)  returns 0x00 (0000ms, 0625ms total)
T1B70 000:800 JLINK_WriteReg(XPSR, 0x01000000)  returns 0x00 (0000ms, 0625ms total)
T1B70 000:800 JLINK_WriteReg(MSP, 0x20001000)  returns 0x00 (0000ms, 0625ms total)
T1B70 000:800 JLINK_WriteReg(PSP, 0x20001000)  returns 0x00 (0000ms, 0625ms total)
T1B70 000:800 JLINK_WriteReg(CFBP, 0x00000000)  returns 0x00 (0000ms, 0625ms total)
T1B70 000:800 JLINK_SetBPEx(Addr = 0x20000000, Type = 0xFFFFFFF2) -- CPU_ReadMem(2 bytes @ 0x20000000)  returns 0x00000001 (0001ms, 0626ms total)
T1B70 000:801 JLINK_Go() -- CPU_WriteMem(2 bytes @ 0x20000000) -- CPU_WriteMem(4 bytes @ 0xE0002008) -- CPU_WriteMem(4 bytes @ 0xE000200C) -- CPU_WriteMem(4 bytes @ 0xE0002010) -- CPU_WriteMem(4 bytes @ 0xE0002014) -- CPU_WriteMem(4 bytes @ 0xE0002018) -- CPU_WriteMem(4 bytes @ 0xE000201C) -- CPU_WriteMem(4 bytes @ 0xE0001004) (0002ms, 0628ms total)
T1B70 000:803 JLINK_IsHalted() -- CPU_ReadMem(2 bytes @ 0x20000000)  returns TRUE (0002ms, 0630ms total)
T1B70 000:805 JLINK_ReadReg(R15 (PC))  returns 0x20000000 (0000ms, 0628ms total)
T1B70 000:805 JLINK_ClrBPEx(BPHandle = 0x00000001)  returns 0x00 (0000ms, 0628ms total)
T1B70 000:805 JLINK_ReadReg(R0)  returns 0x00000000 (0000ms, 0628ms total)
T1B70 000:805 JLINK_WriteReg(R0, 0x00000000)  returns 0x00 (0000ms, 0628ms total)
T1B70 000:805 JLINK_WriteReg(R1, 0x00001000)  returns 0x00 (0000ms, 0628ms total)
T1B70 000:805 JLINK_WriteReg(R2, 0x000000FF)  returns 0x00 (0000ms, 0628ms total)
T1B70 000:805 JLINK_WriteReg(R3, 0x00000000)  returns 0x00 (0000ms, 0628ms total)
T1B70 000:805 JLINK_WriteReg(R4, 0x00000000)  returns 0x00 (0000ms, 0628ms total)
T1B70 000:805 JLINK_WriteReg(R5, 0x00000000)  returns 0x00 (0000ms, 0628ms total)
T1B70 000:805 JLINK_WriteReg(R6, 0x00000000)  returns 0x00 (0000ms, 0628ms total)
T1B70 000:805 JLINK_WriteReg(R7, 0x00000000)  returns 0x00 (0000ms, 0628ms total)
T1B70 000:805 JLINK_WriteReg(R8, 0x00000000)  returns 0x00 (0000ms, 0628ms total)
T1B70 000:805 JLINK_WriteReg(R9, 0x20000508)  returns 0x00 (0000ms, 0628ms total)
T1B70 000:805 JLINK_WriteReg(R10, 0x00000000)  returns 0x00 (0000ms, 0628ms total)
T1B70 000:805 JLINK_WriteReg(R11, 0x00000000)  returns 0x00 (0000ms, 0628ms total)
T1B70 000:805 JLINK_WriteReg(R12, 0x00000000)  returns 0x00 (0000ms, 0628ms total)
T1B70 000:805 JLINK_WriteReg(R13 (SP), 0x20001000)  returns 0x00 (0000ms, 0628ms total)
T1B70 000:805 JLINK_WriteReg(R14, 0x20000001)  returns 0x00 (0000ms, 0628ms total)
T1B70 000:805 JLINK_WriteReg(R15 (PC), 0x20000078)  returns 0x00 (0000ms, 0628ms total)
T1B70 000:805 JLINK_WriteReg(XPSR, 0x01000000)  returns 0x00 (0000ms, 0628ms total)
T1B70 000:805 JLINK_WriteReg(MSP, 0x20001000)  returns 0x00 (0000ms, 0628ms total)
T1B70 000:805 JLINK_WriteReg(PSP, 0x20001000)  returns 0x00 (0000ms, 0628ms total)
T1B70 000:805 JLINK_WriteReg(CFBP, 0x00000000)  returns 0x00 (0000ms, 0628ms total)
T1B70 000:805 JLINK_SetBPEx(Addr = 0x20000000, Type = 0xFFFFFFF2)  returns 0x00000002 (0000ms, 0628ms total)
T1B70 000:805 JLINK_Go() (0002ms, 0630ms total)
T1B70 000:807 JLINK_IsHalted() -- CPU_ReadMem(2 bytes @ 0x20000000)  returns TRUE (0001ms, 0631ms total)
T1B70 000:808 JLINK_ReadReg(R15 (PC))  returns 0x20000000 (0000ms, 0630ms total)
T1B70 000:808 JLINK_ClrBPEx(BPHandle = 0x00000002)  returns 0x00 (0000ms, 0630ms total)
T1B70 000:808 JLINK_ReadReg(R0)  returns 0x00000001 (0000ms, 0630ms total)
T1B70 000:808 JLINK_WriteReg(R0, 0x00000000)  returns 0x00 (0000ms, 0630ms total)
T1B70 000:808 JLINK_WriteReg(R1, 0x00001000)  returns 0x00 (0000ms, 0630ms total)
T1B70 000:808 JLINK_WriteReg(R2, 0x000000FF)  returns 0x00 (0000ms, 0630ms total)
T1B70 000:808 JLINK_WriteReg(R3, 0x00000000)  returns 0x00 (0000ms, 0630ms total)
T1B70 000:808 JLINK_WriteReg(R4, 0x00000000)  returns 0x00 (0000ms, 0630ms total)
T1B70 000:808 JLINK_WriteReg(R5, 0x00000000)  returns 0x00 (0000ms, 0630ms total)
T1B70 000:808 JLINK_WriteReg(R6, 0x00000000)  returns 0x00 (0000ms, 0630ms total)
T1B70 000:808 JLINK_WriteReg(R7, 0x00000000)  returns 0x00 (0000ms, 0630ms total)
T1B70 000:808 JLINK_WriteReg(R8, 0x00000000)  returns 0x00 (0000ms, 0630ms total)
T1B70 000:808 JLINK_WriteReg(R9, 0x20000508)  returns 0x00 (0000ms, 0630ms total)
T1B70 000:808 JLINK_WriteReg(R10, 0x00000000)  returns 0x00 (0000ms, 0630ms total)
T1B70 000:808 JLINK_WriteReg(R11, 0x00000000)  returns 0x00 (0000ms, 0630ms total)
T1B70 000:808 JLINK_WriteReg(R12, 0x00000000)  returns 0x00 (0000ms, 0630ms total)
T1B70 000:808 JLINK_WriteReg(R13 (SP), 0x20001000)  returns 0x00 (0000ms, 0630ms total)
T1B70 000:808 JLINK_WriteReg(R14, 0x20000001)  returns 0x00 (0000ms, 0630ms total)
T1B70 000:808 JLINK_WriteReg(R15 (PC), 0x200000CE)  returns 0x00 (0000ms, 0630ms total)
T1B70 000:808 JLINK_WriteReg(XPSR, 0x01000000)  returns 0x00 (0000ms, 0630ms total)
T1B70 000:808 JLINK_WriteReg(MSP, 0x20001000)  returns 0x00 (0000ms, 0630ms total)
T1B70 000:808 JLINK_WriteReg(PSP, 0x20001000)  returns 0x00 (0000ms, 0630ms total)
T1B70 000:808 JLINK_WriteReg(CFBP, 0x00000000)  returns 0x00 (0001ms, 0631ms total)
T1B70 000:809 JLINK_SetBPEx(Addr = 0x20000000, Type = 0xFFFFFFF2)  returns 0x00000003 (0000ms, 0631ms total)
T1B70 000:809 JLINK_Go() (0000ms, 0631ms total)
T1B70 000:809 JLINK_IsHalted()  returns FALSE (0001ms, 0632ms total)
T1B70 000:875 JLINK_IsHalted() -- CPU_ReadMem(2 bytes @ 0x20000000)  returns TRUE (0001ms, 0632ms total)
T1B70 000:876 JLINK_ReadReg(R15 (PC))  returns 0x20000000 (0000ms, 0631ms total)
T1B70 000:876 JLINK_ClrBPEx(BPHandle = 0x00000003)  returns 0x00 (0000ms, 0631ms total)
T1B70 000:876 JLINK_ReadReg(R0)  returns 0x00000000 (0000ms, 0631ms total)
T1B70 000:877 JLINK_WriteReg(R0, 0x00001000)  returns 0x00 (0000ms, 0631ms total)
T1B70 000:877 JLINK_WriteReg(R1, 0x00001000)  returns 0x00 (0000ms, 0631ms total)
T1B70 000:877 JLINK_WriteReg(R2, 0x000000FF)  returns 0x00 (0000ms, 0631ms total)
T1B70 000:877 JLINK_WriteReg(R3, 0x00000000)  returns 0x00 (0000ms, 0631ms total)
T1B70 000:877 JLINK_WriteReg(R4, 0x00000000)  returns 0x00 (0000ms, 0631ms total)
T1B70 000:877 JLINK_WriteReg(R5, 0x00000000)  returns 0x00 (0000ms, 0631ms total)
T1B70 000:877 JLINK_WriteReg(R6, 0x00000000)  returns 0x00 (0000ms, 0631ms total)
T1B70 000:877 JLINK_WriteReg(R7, 0x00000000)  returns 0x00 (0000ms, 0631ms total)
T1B70 000:877 JLINK_WriteReg(R8, 0x00000000)  returns 0x00 (0000ms, 0631ms total)
T1B70 000:877 JLINK_WriteReg(R9, 0x20000508)  returns 0x00 (0000ms, 0631ms total)
T1B70 000:877 JLINK_WriteReg(R10, 0x00000000)  returns 0x00 (0000ms, 0631ms total)
T1B70 000:877 JLINK_WriteReg(R11, 0x00000000)  returns 0x00 (0000ms, 0631ms total)
T1B70 000:877 JLINK_WriteReg(R12, 0x00000000)  returns 0x00 (0000ms, 0631ms total)
T1B70 000:877 JLINK_WriteReg(R13 (SP), 0x20001000)  returns 0x00 (0000ms, 0631ms total)
T1B70 000:877 JLINK_WriteReg(R14, 0x20000001)  returns 0x00 (0000ms, 0631ms total)
T1B70 000:877 JLINK_WriteReg(R15 (PC), 0x20000078)  returns 0x00 (0000ms, 0631ms total)
T1B70 000:877 JLINK_WriteReg(XPSR, 0x01000000)  returns 0x00 (0000ms, 0631ms total)
T1B70 000:877 JLINK_WriteReg(MSP, 0x20001000)  returns 0x00 (0000ms, 0631ms total)
T1B70 000:877 JLINK_WriteReg(PSP, 0x20001000)  returns 0x00 (0000ms, 0631ms total)
T1B70 000:877 JLINK_WriteReg(CFBP, 0x00000000)  returns 0x00 (0000ms, 0631ms total)
T1B70 000:877 JLINK_SetBPEx(Addr = 0x20000000, Type = 0xFFFFFFF2)  returns 0x00000004 (0000ms, 0631ms total)
T1B70 000:877 JLINK_Go() (0001ms, 0632ms total)
T1B70 000:878 JLINK_IsHalted() -- CPU_ReadMem(2 bytes @ 0x20000000)  returns TRUE (0001ms, 0633ms total)
T1B70 000:879 JLINK_ReadReg(R15 (PC))  returns 0x20000000 (0000ms, 0632ms total)
T1B70 000:879 JLINK_ClrBPEx(BPHandle = 0x00000004)  returns 0x00 (0000ms, 0632ms total)
T1B70 000:879 JLINK_ReadReg(R0)  returns 0x00000000 (0000ms, 0632ms total)
T1B70 000:880 JLINK_WriteReg(R0, 0x00002000)  returns 0x00 (0000ms, 0632ms total)
T1B70 000:880 JLINK_WriteReg(R1, 0x00001000)  returns 0x00 (0000ms, 0632ms total)
T1B70 000:880 JLINK_WriteReg(R2, 0x000000FF)  returns 0x00 (0000ms, 0632ms total)
T1B70 000:880 JLINK_WriteReg(R3, 0x00000000)  returns 0x00 (0000ms, 0632ms total)
T1B70 000:880 JLINK_WriteReg(R4, 0x00000000)  returns 0x00 (0000ms, 0632ms total)
T1B70 000:880 JLINK_WriteReg(R5, 0x00000000)  returns 0x00 (0000ms, 0632ms total)
T1B70 000:880 JLINK_WriteReg(R6, 0x00000000)  returns 0x00 (0000ms, 0632ms total)
T1B70 000:880 JLINK_WriteReg(R7, 0x00000000)  returns 0x00 (0000ms, 0632ms total)
T1B70 000:880 JLINK_WriteReg(R8, 0x00000000)  returns 0x00 (0000ms, 0632ms total)
T1B70 000:880 JLINK_WriteReg(R9, 0x20000508)  returns 0x00 (0000ms, 0632ms total)
T1B70 000:880 JLINK_WriteReg(R10, 0x00000000)  returns 0x00 (0000ms, 0632ms total)
T1B70 000:880 JLINK_WriteReg(R11, 0x00000000)  returns 0x00 (0000ms, 0632ms total)
T1B70 000:880 JLINK_WriteReg(R12, 0x00000000)  returns 0x00 (0000ms, 0632ms total)
T1B70 000:880 JLINK_WriteReg(R13 (SP), 0x20001000)  returns 0x00 (0000ms, 0632ms total)
T1B70 000:880 JLINK_WriteReg(R14, 0x20000001)  returns 0x00 (0000ms, 0632ms total)
T1B70 000:880 JLINK_WriteReg(R15 (PC), 0x20000078)  returns 0x00 (0000ms, 0632ms total)
T1B70 000:880 JLINK_WriteReg(XPSR, 0x01000000)  returns 0x00 (0000ms, 0632ms total)
T1B70 000:880 JLINK_WriteReg(MSP, 0x20001000)  returns 0x00 (0000ms, 0632ms total)
T1B70 000:880 JLINK_WriteReg(PSP, 0x20001000)  returns 0x00 (0000ms, 0632ms total)
T1B70 000:880 JLINK_WriteReg(CFBP, 0x00000000)  returns 0x00 (0000ms, 0632ms total)
T1B70 000:880 JLINK_SetBPEx(Addr = 0x20000000, Type = 0xFFFFFFF2)  returns 0x00000005 (0000ms, 0632ms total)
T1B70 000:880 JLINK_Go() (0001ms, 0633ms total)
T1B70 000:881 JLINK_IsHalted() -- CPU_ReadMem(2 bytes @ 0x20000000)  returns TRUE (0001ms, 0634ms total)
T1B70 000:882 JLINK_ReadReg(R15 (PC))  returns 0x20000000 (0000ms, 0633ms total)
T1B70 000:882 JLINK_ClrBPEx(BPHandle = 0x00000005)  returns 0x00 (0000ms, 0633ms total)
T1B70 000:882 JLINK_ReadReg(R0)  returns 0x00000000 (0000ms, 0633ms total)
T1B70 000:883 JLINK_WriteReg(R0, 0x00003000)  returns 0x00 (0000ms, 0633ms total)
T1B70 000:883 JLINK_WriteReg(R1, 0x00001000)  returns 0x00 (0000ms, 0633ms total)
T1B70 000:883 JLINK_WriteReg(R2, 0x000000FF)  returns 0x00 (0000ms, 0633ms total)
T1B70 000:883 JLINK_WriteReg(R3, 0x00000000)  returns 0x00 (0000ms, 0633ms total)
T1B70 000:883 JLINK_WriteReg(R4, 0x00000000)  returns 0x00 (0000ms, 0633ms total)
T1B70 000:883 JLINK_WriteReg(R5, 0x00000000)  returns 0x00 (0000ms, 0633ms total)
T1B70 000:883 JLINK_WriteReg(R6, 0x00000000)  returns 0x00 (0000ms, 0633ms total)
T1B70 000:883 JLINK_WriteReg(R7, 0x00000000)  returns 0x00 (0000ms, 0633ms total)
T1B70 000:883 JLINK_WriteReg(R8, 0x00000000)  returns 0x00 (0000ms, 0633ms total)
T1B70 000:883 JLINK_WriteReg(R9, 0x20000508)  returns 0x00 (0000ms, 0633ms total)
T1B70 000:883 JLINK_WriteReg(R10, 0x00000000)  returns 0x00 (0000ms, 0633ms total)
T1B70 000:883 JLINK_WriteReg(R11, 0x00000000)  returns 0x00 (0000ms, 0633ms total)
T1B70 000:883 JLINK_WriteReg(R12, 0x00000000)  returns 0x00 (0000ms, 0633ms total)
T1B70 000:883 JLINK_WriteReg(R13 (SP), 0x20001000)  returns 0x00 (0000ms, 0633ms total)
T1B70 000:883 JLINK_WriteReg(R14, 0x20000001)  returns 0x00 (0000ms, 0633ms total)
T1B70 000:883 JLINK_WriteReg(R15 (PC), 0x20000078)  returns 0x00 (0000ms, 0633ms total)
T1B70 000:883 JLINK_WriteReg(XPSR, 0x01000000)  returns 0x00 (0000ms, 0633ms total)
T1B70 000:883 JLINK_WriteReg(MSP, 0x20001000)  returns 0x00 (0000ms, 0633ms total)
T1B70 000:883 JLINK_WriteReg(PSP, 0x20001000)  returns 0x00 (0000ms, 0633ms total)
T1B70 000:883 JLINK_WriteReg(CFBP, 0x00000000)  returns 0x00 (0000ms, 0633ms total)
T1B70 000:883 JLINK_SetBPEx(Addr = 0x20000000, Type = 0xFFFFFFF2)  returns 0x00000006 (0000ms, 0633ms total)
T1B70 000:883 JLINK_Go() (0001ms, 0634ms total)
T1B70 000:884 JLINK_IsHalted() -- CPU_ReadMem(2 bytes @ 0x20000000)  returns TRUE (0001ms, 0635ms total)
T1B70 000:885 JLINK_ReadReg(R15 (PC))  returns 0x20000000 (0000ms, 0634ms total)
T1B70 000:885 JLINK_ClrBPEx(BPHandle = 0x00000006)  returns 0x00 (0000ms, 0634ms total)
T1B70 000:885 JLINK_ReadReg(R0)  returns 0x00000000 (0000ms, 0634ms total)
T1B70 000:886 JLINK_WriteReg(R0, 0x00004000)  returns 0x00 (0000ms, 0634ms total)
T1B70 000:886 JLINK_WriteReg(R1, 0x00001000)  returns 0x00 (0000ms, 0634ms total)
T1B70 000:886 JLINK_WriteReg(R2, 0x000000FF)  returns 0x00 (0000ms, 0634ms total)
T1B70 000:886 JLINK_WriteReg(R3, 0x00000000)  returns 0x00 (0000ms, 0634ms total)
T1B70 000:886 JLINK_WriteReg(R4, 0x00000000)  returns 0x00 (0000ms, 0634ms total)
T1B70 000:886 JLINK_WriteReg(R5, 0x00000000)  returns 0x00 (0000ms, 0634ms total)
T1B70 000:886 JLINK_WriteReg(R6, 0x00000000)  returns 0x00 (0000ms, 0634ms total)
T1B70 000:886 JLINK_WriteReg(R7, 0x00000000)  returns 0x00 (0000ms, 0634ms total)
T1B70 000:886 JLINK_WriteReg(R8, 0x00000000)  returns 0x00 (0000ms, 0634ms total)
T1B70 000:886 JLINK_WriteReg(R9, 0x20000508)  returns 0x00 (0000ms, 0634ms total)
T1B70 000:886 JLINK_WriteReg(R10, 0x00000000)  returns 0x00 (0000ms, 0634ms total)
T1B70 000:886 JLINK_WriteReg(R11, 0x00000000)  returns 0x00 (0000ms, 0634ms total)
T1B70 000:886 JLINK_WriteReg(R12, 0x00000000)  returns 0x00 (0000ms, 0634ms total)
T1B70 000:886 JLINK_WriteReg(R13 (SP), 0x20001000)  returns 0x00 (0000ms, 0634ms total)
T1B70 000:886 JLINK_WriteReg(R14, 0x20000001)  returns 0x00 (0000ms, 0634ms total)
T1B70 000:886 JLINK_WriteReg(R15 (PC), 0x20000078)  returns 0x00 (0000ms, 0634ms total)
T1B70 000:886 JLINK_WriteReg(XPSR, 0x01000000)  returns 0x00 (0000ms, 0634ms total)
T1B70 000:886 JLINK_WriteReg(MSP, 0x20001000)  returns 0x00 (0000ms, 0634ms total)
T1B70 000:886 JLINK_WriteReg(PSP, 0x20001000)  returns 0x00 (0000ms, 0634ms total)
T1B70 000:886 JLINK_WriteReg(CFBP, 0x00000000)  returns 0x00 (0000ms, 0634ms total)
T1B70 000:886 JLINK_SetBPEx(Addr = 0x20000000, Type = 0xFFFFFFF2)  returns 0x00000007 (0000ms, 0634ms total)
T1B70 000:886 JLINK_Go() (0001ms, 0635ms total)
T1B70 000:887 JLINK_IsHalted() -- CPU_ReadMem(2 bytes @ 0x20000000)  returns TRUE (0001ms, 0636ms total)
T1B70 000:888 JLINK_ReadReg(R15 (PC))  returns 0x20000000 (0000ms, 0635ms total)
T1B70 000:888 JLINK_ClrBPEx(BPHandle = 0x00000007)  returns 0x00 (0001ms, 0636ms total)
T1B70 000:889 JLINK_ReadReg(R0)  returns 0x00000000 (0000ms, 0636ms total)
T1B70 000:889 JLINK_WriteReg(R0, 0x00005000)  returns 0x00 (0000ms, 0636ms total)
T1B70 000:889 JLINK_WriteReg(R1, 0x00001000)  returns 0x00 (0000ms, 0636ms total)
T1B70 000:889 JLINK_WriteReg(R2, 0x000000FF)  returns 0x00 (0000ms, 0636ms total)
T1B70 000:889 JLINK_WriteReg(R3, 0x00000000)  returns 0x00 (0000ms, 0636ms total)
T1B70 000:889 JLINK_WriteReg(R4, 0x00000000)  returns 0x00 (0000ms, 0636ms total)
T1B70 000:889 JLINK_WriteReg(R5, 0x00000000)  returns 0x00 (0000ms, 0636ms total)
T1B70 000:889 JLINK_WriteReg(R6, 0x00000000)  returns 0x00 (0000ms, 0636ms total)
T1B70 000:889 JLINK_WriteReg(R7, 0x00000000)  returns 0x00 (0000ms, 0636ms total)
T1B70 000:889 JLINK_WriteReg(R8, 0x00000000)  returns 0x00 (0000ms, 0636ms total)
T1B70 000:889 JLINK_WriteReg(R9, 0x20000508)  returns 0x00 (0000ms, 0636ms total)
T1B70 000:889 JLINK_WriteReg(R10, 0x00000000)  returns 0x00 (0000ms, 0636ms total)
T1B70 000:889 JLINK_WriteReg(R11, 0x00000000)  returns 0x00 (0000ms, 0636ms total)
T1B70 000:889 JLINK_WriteReg(R12, 0x00000000)  returns 0x00 (0000ms, 0636ms total)
T1B70 000:889 JLINK_WriteReg(R13 (SP), 0x20001000)  returns 0x00 (0000ms, 0636ms total)
T1B70 000:889 JLINK_WriteReg(R14, 0x20000001)  returns 0x00 (0000ms, 0636ms total)
T1B70 000:889 JLINK_WriteReg(R15 (PC), 0x20000078)  returns 0x00 (0000ms, 0636ms total)
T1B70 000:889 JLINK_WriteReg(XPSR, 0x01000000)  returns 0x00 (0000ms, 0636ms total)
T1B70 000:889 JLINK_WriteReg(MSP, 0x20001000)  returns 0x00 (0000ms, 0636ms total)
T1B70 000:889 JLINK_WriteReg(PSP, 0x20001000)  returns 0x00 (0000ms, 0636ms total)
T1B70 000:889 JLINK_WriteReg(CFBP, 0x00000000)  returns 0x00 (0000ms, 0636ms total)
T1B70 000:889 JLINK_SetBPEx(Addr = 0x20000000, Type = 0xFFFFFFF2)  returns 0x00000008 (0000ms, 0636ms total)
T1B70 000:889 JLINK_Go() (0001ms, 0637ms total)
T1B70 000:890 JLINK_IsHalted() -- CPU_ReadMem(2 bytes @ 0x20000000)  returns TRUE (0002ms, 0639ms total)
T1B70 000:892 JLINK_ReadReg(R15 (PC))  returns 0x20000000 (0000ms, 0637ms total)
T1B70 000:892 JLINK_ClrBPEx(BPHandle = 0x00000008)  returns 0x00 (0000ms, 0637ms total)
T1B70 000:892 JLINK_ReadReg(R0)  returns 0x00000000 (0000ms, 0637ms total)
T1B70 000:892 JLINK_WriteReg(R0, 0x00006000)  returns 0x00 (0000ms, 0637ms total)
T1B70 000:892 JLINK_WriteReg(R1, 0x00001000)  returns 0x00 (0000ms, 0637ms total)
T1B70 000:892 JLINK_WriteReg(R2, 0x000000FF)  returns 0x00 (0000ms, 0637ms total)
T1B70 000:892 JLINK_WriteReg(R3, 0x00000000)  returns 0x00 (0000ms, 0637ms total)
T1B70 000:892 JLINK_WriteReg(R4, 0x00000000)  returns 0x00 (0000ms, 0637ms total)
T1B70 000:892 JLINK_WriteReg(R5, 0x00000000)  returns 0x00 (0000ms, 0637ms total)
T1B70 000:892 JLINK_WriteReg(R6, 0x00000000)  returns 0x00 (0000ms, 0637ms total)
T1B70 000:892 JLINK_WriteReg(R7, 0x00000000)  returns 0x00 (0000ms, 0637ms total)
T1B70 000:892 JLINK_WriteReg(R8, 0x00000000)  returns 0x00 (0000ms, 0637ms total)
T1B70 000:892 JLINK_WriteReg(R9, 0x20000508)  returns 0x00 (0000ms, 0637ms total)
T1B70 000:892 JLINK_WriteReg(R10, 0x00000000)  returns 0x00 (0000ms, 0637ms total)
T1B70 000:892 JLINK_WriteReg(R11, 0x00000000)  returns 0x00 (0000ms, 0637ms total)
T1B70 000:892 JLINK_WriteReg(R12, 0x00000000)  returns 0x00 (0000ms, 0637ms total)
T1B70 000:892 JLINK_WriteReg(R13 (SP), 0x20001000)  returns 0x00 (0001ms, 0638ms total)
T1B70 000:893 JLINK_WriteReg(R14, 0x20000001)  returns 0x00 (0000ms, 0638ms total)
T1B70 000:893 JLINK_WriteReg(R15 (PC), 0x20000078)  returns 0x00 (0000ms, 0638ms total)
T1B70 000:893 JLINK_WriteReg(XPSR, 0x01000000)  returns 0x00 (0000ms, 0638ms total)
T1B70 000:893 JLINK_WriteReg(MSP, 0x20001000)  returns 0x00 (0000ms, 0638ms total)
T1B70 000:893 JLINK_WriteReg(PSP, 0x20001000)  returns 0x00 (0000ms, 0638ms total)
T1B70 000:893 JLINK_WriteReg(CFBP, 0x00000000)  returns 0x00 (0000ms, 0638ms total)
T1B70 000:893 JLINK_SetBPEx(Addr = 0x20000000, Type = 0xFFFFFFF2)  returns 0x00000009 (0000ms, 0638ms total)
T1B70 000:893 JLINK_Go() (0000ms, 0638ms total)
T1B70 000:893 JLINK_IsHalted() -- CPU_ReadMem(2 bytes @ 0x20000000)  returns TRUE (0002ms, 0640ms total)
T1B70 000:895 JLINK_ReadReg(R15 (PC))  returns 0x20000000 (0000ms, 0638ms total)
T1B70 000:895 JLINK_ClrBPEx(BPHandle = 0x00000009)  returns 0x00 (0000ms, 0638ms total)
T1B70 000:895 JLINK_ReadReg(R0)  returns 0x00000000 (0000ms, 0638ms total)
T1B70 000:896 JLINK_WriteReg(R0, 0x00007000)  returns 0x00 (0000ms, 0638ms total)
T1B70 000:896 JLINK_WriteReg(R1, 0x00001000)  returns 0x00 (0000ms, 0638ms total)
T1B70 000:896 JLINK_WriteReg(R2, 0x000000FF)  returns 0x00 (0000ms, 0638ms total)
T1B70 000:896 JLINK_WriteReg(R3, 0x00000000)  returns 0x00 (0000ms, 0638ms total)
T1B70 000:896 JLINK_WriteReg(R4, 0x00000000)  returns 0x00 (0000ms, 0638ms total)
T1B70 000:896 JLINK_WriteReg(R5, 0x00000000)  returns 0x00 (0000ms, 0638ms total)
T1B70 000:896 JLINK_WriteReg(R6, 0x00000000)  returns 0x00 (0000ms, 0638ms total)
T1B70 000:896 JLINK_WriteReg(R7, 0x00000000)  returns 0x00 (0000ms, 0638ms total)
T1B70 000:896 JLINK_WriteReg(R8, 0x00000000)  returns 0x00 (0000ms, 0638ms total)
T1B70 000:896 JLINK_WriteReg(R9, 0x20000508)  returns 0x00 (0000ms, 0638ms total)
T1B70 000:896 JLINK_WriteReg(R10, 0x00000000)  returns 0x00 (0000ms, 0638ms total)
T1B70 000:896 JLINK_WriteReg(R11, 0x00000000)  returns 0x00 (0000ms, 0638ms total)
T1B70 000:896 JLINK_WriteReg(R12, 0x00000000)  returns 0x00 (0000ms, 0638ms total)
T1B70 000:896 JLINK_WriteReg(R13 (SP), 0x20001000)  returns 0x00 (0000ms, 0638ms total)
T1B70 000:896 JLINK_WriteReg(R14, 0x20000001)  returns 0x00 (0000ms, 0638ms total)
T1B70 000:896 JLINK_WriteReg(R15 (PC), 0x20000078)  returns 0x00 (0000ms, 0638ms total)
T1B70 000:896 JLINK_WriteReg(XPSR, 0x01000000)  returns 0x00 (0000ms, 0638ms total)
T1B70 000:896 JLINK_WriteReg(MSP, 0x20001000)  returns 0x00 (0000ms, 0638ms total)
T1B70 000:896 JLINK_WriteReg(PSP, 0x20001000)  returns 0x00 (0000ms, 0638ms total)
T1B70 000:896 JLINK_WriteReg(CFBP, 0x00000000)  returns 0x00 (0000ms, 0638ms total)
T1B70 000:896 JLINK_SetBPEx(Addr = 0x20000000, Type = 0xFFFFFFF2)  returns 0x0000000A (0000ms, 0638ms total)
T1B70 000:896 JLINK_Go() (0001ms, 0639ms total)
T1B70 000:897 JLINK_IsHalted() -- CPU_ReadMem(2 bytes @ 0x20000000)  returns TRUE (0002ms, 0641ms total)
T1B70 000:899 JLINK_ReadReg(R15 (PC))  returns 0x20000000 (0000ms, 0639ms total)
T1B70 000:899 JLINK_ClrBPEx(BPHandle = 0x0000000A)  returns 0x00 (0000ms, 0639ms total)
T1B70 000:899 JLINK_ReadReg(R0)  returns 0x00000000 (0000ms, 0639ms total)
T1B70 000:899 JLINK_WriteReg(R0, 0x00008000)  returns 0x00 (0000ms, 0639ms total)
T1B70 000:899 JLINK_WriteReg(R1, 0x00001000)  returns 0x00 (0000ms, 0639ms total)
T1B70 000:899 JLINK_WriteReg(R2, 0x000000FF)  returns 0x00 (0000ms, 0639ms total)
T1B70 000:899 JLINK_WriteReg(R3, 0x00000000)  returns 0x00 (0000ms, 0639ms total)
T1B70 000:899 JLINK_WriteReg(R4, 0x00000000)  returns 0x00 (0000ms, 0639ms total)
T1B70 000:899 JLINK_WriteReg(R5, 0x00000000)  returns 0x00 (0000ms, 0639ms total)
T1B70 000:899 JLINK_WriteReg(R6, 0x00000000)  returns 0x00 (0000ms, 0639ms total)
T1B70 000:899 JLINK_WriteReg(R7, 0x00000000)  returns 0x00 (0000ms, 0639ms total)
T1B70 000:899 JLINK_WriteReg(R8, 0x00000000)  returns 0x00 (0000ms, 0639ms total)
T1B70 000:899 JLINK_WriteReg(R9, 0x20000508)  returns 0x00 (0000ms, 0639ms total)
T1B70 000:899 JLINK_WriteReg(R10, 0x00000000)  returns 0x00 (0000ms, 0639ms total)
T1B70 000:899 JLINK_WriteReg(R11, 0x00000000)  returns 0x00 (0000ms, 0639ms total)
T1B70 000:899 JLINK_WriteReg(R12, 0x00000000)  returns 0x00 (0000ms, 0639ms total)
T1B70 000:899 JLINK_WriteReg(R13 (SP), 0x20001000)  returns 0x00 (0000ms, 0639ms total)
T1B70 000:899 JLINK_WriteReg(R14, 0x20000001)  returns 0x00 (0000ms, 0639ms total)
T1B70 000:899 JLINK_WriteReg(R15 (PC), 0x20000078)  returns 0x00 (0001ms, 0640ms total)
T1B70 000:900 JLINK_WriteReg(XPSR, 0x01000000)  returns 0x00 (0000ms, 0640ms total)
T1B70 000:900 JLINK_WriteReg(MSP, 0x20001000)  returns 0x00 (0000ms, 0640ms total)
T1B70 000:900 JLINK_WriteReg(PSP, 0x20001000)  returns 0x00 (0000ms, 0640ms total)
T1B70 000:900 JLINK_WriteReg(CFBP, 0x00000000)  returns 0x00 (0000ms, 0640ms total)
T1B70 000:900 JLINK_SetBPEx(Addr = 0x20000000, Type = 0xFFFFFFF2)  returns 0x0000000B (0000ms, 0640ms total)
T1B70 000:900 JLINK_Go() (0000ms, 0640ms total)
T1B70 000:900 JLINK_IsHalted() -- CPU_ReadMem(2 bytes @ 0x20000000)  returns TRUE (0002ms, 0642ms total)
T1B70 000:902 JLINK_ReadReg(R15 (PC))  returns 0x20000000 (0000ms, 0640ms total)
T1B70 000:902 JLINK_ClrBPEx(BPHandle = 0x0000000B)  returns 0x00 (0000ms, 0640ms total)
T1B70 000:902 JLINK_ReadReg(R0)  returns 0x00000000 (0000ms, 0640ms total)
T1B70 000:902 JLINK_WriteReg(R0, 0x00009000)  returns 0x00 (0000ms, 0640ms total)
T1B70 000:902 JLINK_WriteReg(R1, 0x00001000)  returns 0x00 (0000ms, 0640ms total)
T1B70 000:902 JLINK_WriteReg(R2, 0x000000FF)  returns 0x00 (0000ms, 0640ms total)
T1B70 000:902 JLINK_WriteReg(R3, 0x00000000)  returns 0x00 (0000ms, 0640ms total)
T1B70 000:902 JLINK_WriteReg(R4, 0x00000000)  returns 0x00 (0000ms, 0640ms total)
T1B70 000:902 JLINK_WriteReg(R5, 0x00000000)  returns 0x00 (0000ms, 0640ms total)
T1B70 000:902 JLINK_WriteReg(R6, 0x00000000)  returns 0x00 (0000ms, 0640ms total)
T1B70 000:902 JLINK_WriteReg(R7, 0x00000000)  returns 0x00 (0000ms, 0640ms total)
T1B70 000:902 JLINK_WriteReg(R8, 0x00000000)  returns 0x00 (0000ms, 0640ms total)
T1B70 000:902 JLINK_WriteReg(R9, 0x20000508)  returns 0x00 (0000ms, 0640ms total)
T1B70 000:902 JLINK_WriteReg(R10, 0x00000000)  returns 0x00 (0000ms, 0640ms total)
T1B70 000:902 JLINK_WriteReg(R11, 0x00000000)  returns 0x00 (0000ms, 0640ms total)
T1B70 000:902 JLINK_WriteReg(R12, 0x00000000)  returns 0x00 (0000ms, 0640ms total)
T1B70 000:902 JLINK_WriteReg(R13 (SP), 0x20001000)  returns 0x00 (0000ms, 0640ms total)
T1B70 000:902 JLINK_WriteReg(R14, 0x20000001)  returns 0x00 (0000ms, 0640ms total)
T1B70 000:902 JLINK_WriteReg(R15 (PC), 0x20000078)  returns 0x00 (0000ms, 0640ms total)
T1B70 000:902 JLINK_WriteReg(XPSR, 0x01000000)  returns 0x00 (0000ms, 0640ms total)
T1B70 000:902 JLINK_WriteReg(MSP, 0x20001000)  returns 0x00 (0000ms, 0640ms total)
T1B70 000:902 JLINK_WriteReg(PSP, 0x20001000)  returns 0x00 (0000ms, 0640ms total)
T1B70 000:902 JLINK_WriteReg(CFBP, 0x00000000)  returns 0x00 (0000ms, 0640ms total)
T1B70 000:902 JLINK_SetBPEx(Addr = 0x20000000, Type = 0xFFFFFFF2)  returns 0x0000000C (0000ms, 0640ms total)
T1B70 000:902 JLINK_Go() (0001ms, 0641ms total)
T1B70 000:903 JLINK_IsHalted() -- CPU_ReadMem(2 bytes @ 0x20000000)  returns TRUE (0002ms, 0643ms total)
T1B70 000:905 JLINK_ReadReg(R15 (PC))  returns 0x20000000 (0000ms, 0641ms total)
T1B70 000:905 JLINK_ClrBPEx(BPHandle = 0x0000000C)  returns 0x00 (0000ms, 0641ms total)
T1B70 000:905 JLINK_ReadReg(R0)  returns 0x00000000 (0000ms, 0641ms total)
T1B70 000:905 JLINK_WriteReg(R0, 0x0000A000)  returns 0x00 (0000ms, 0641ms total)
T1B70 000:905 JLINK_WriteReg(R1, 0x00001000)  returns 0x00 (0000ms, 0641ms total)
T1B70 000:905 JLINK_WriteReg(R2, 0x000000FF)  returns 0x00 (0000ms, 0641ms total)
T1B70 000:905 JLINK_WriteReg(R3, 0x00000000)  returns 0x00 (0000ms, 0641ms total)
T1B70 000:905 JLINK_WriteReg(R4, 0x00000000)  returns 0x00 (0000ms, 0641ms total)
T1B70 000:905 JLINK_WriteReg(R5, 0x00000000)  returns 0x00 (0000ms, 0641ms total)
T1B70 000:905 JLINK_WriteReg(R6, 0x00000000)  returns 0x00 (0000ms, 0641ms total)
T1B70 000:905 JLINK_WriteReg(R7, 0x00000000)  returns 0x00 (0000ms, 0641ms total)
T1B70 000:905 JLINK_WriteReg(R8, 0x00000000)  returns 0x00 (0000ms, 0641ms total)
T1B70 000:905 JLINK_WriteReg(R9, 0x20000508)  returns 0x00 (0000ms, 0641ms total)
T1B70 000:905 JLINK_WriteReg(R10, 0x00000000)  returns 0x00 (0000ms, 0641ms total)
T1B70 000:905 JLINK_WriteReg(R11, 0x00000000)  returns 0x00 (0000ms, 0641ms total)
T1B70 000:905 JLINK_WriteReg(R12, 0x00000000)  returns 0x00 (0000ms, 0641ms total)
T1B70 000:905 JLINK_WriteReg(R13 (SP), 0x20001000)  returns 0x00 (0000ms, 0641ms total)
T1B70 000:905 JLINK_WriteReg(R14, 0x20000001)  returns 0x00 (0000ms, 0641ms total)
T1B70 000:905 JLINK_WriteReg(R15 (PC), 0x20000078)  returns 0x00 (0000ms, 0641ms total)
T1B70 000:905 JLINK_WriteReg(XPSR, 0x01000000)  returns 0x00 (0000ms, 0641ms total)
T1B70 000:905 JLINK_WriteReg(MSP, 0x20001000)  returns 0x00 (0001ms, 0642ms total)
T1B70 000:906 JLINK_WriteReg(PSP, 0x20001000)  returns 0x00 (0000ms, 0642ms total)
T1B70 000:906 JLINK_WriteReg(CFBP, 0x00000000)  returns 0x00 (0000ms, 0642ms total)
T1B70 000:906 JLINK_SetBPEx(Addr = 0x20000000, Type = 0xFFFFFFF2)  returns 0x0000000D (0000ms, 0642ms total)
T1B70 000:906 JLINK_Go() (0000ms, 0642ms total)
T1B70 000:906 JLINK_IsHalted() -- CPU_ReadMem(2 bytes @ 0x20000000)  returns TRUE (0002ms, 0644ms total)
T1B70 000:908 JLINK_ReadReg(R15 (PC))  returns 0x20000000 (0000ms, 0642ms total)
T1B70 000:908 JLINK_ClrBPEx(BPHandle = 0x0000000D)  returns 0x00 (0000ms, 0642ms total)
T1B70 000:908 JLINK_ReadReg(R0)  returns 0x00000000 (0000ms, 0642ms total)
T1B70 000:908 JLINK_WriteReg(R0, 0x0000B000)  returns 0x00 (0000ms, 0642ms total)
T1B70 000:908 JLINK_WriteReg(R1, 0x00001000)  returns 0x00 (0000ms, 0642ms total)
T1B70 000:908 JLINK_WriteReg(R2, 0x000000FF)  returns 0x00 (0000ms, 0642ms total)
T1B70 000:908 JLINK_WriteReg(R3, 0x00000000)  returns 0x00 (0001ms, 0643ms total)
T1B70 000:909 JLINK_WriteReg(R4, 0x00000000)  returns 0x00 (0000ms, 0643ms total)
T1B70 000:909 JLINK_WriteReg(R5, 0x00000000)  returns 0x00 (0000ms, 0643ms total)
T1B70 000:909 JLINK_WriteReg(R6, 0x00000000)  returns 0x00 (0000ms, 0643ms total)
T1B70 000:909 JLINK_WriteReg(R7, 0x00000000)  returns 0x00 (0000ms, 0643ms total)
T1B70 000:909 JLINK_WriteReg(R8, 0x00000000)  returns 0x00 (0000ms, 0643ms total)
T1B70 000:909 JLINK_WriteReg(R9, 0x20000508)  returns 0x00 (0000ms, 0643ms total)
T1B70 000:909 JLINK_WriteReg(R10, 0x00000000)  returns 0x00 (0000ms, 0643ms total)
T1B70 000:909 JLINK_WriteReg(R11, 0x00000000)  returns 0x00 (0000ms, 0643ms total)
T1B70 000:909 JLINK_WriteReg(R12, 0x00000000)  returns 0x00 (0000ms, 0643ms total)
T1B70 000:909 JLINK_WriteReg(R13 (SP), 0x20001000)  returns 0x00 (0000ms, 0643ms total)
T1B70 000:909 JLINK_WriteReg(R14, 0x20000001)  returns 0x00 (0000ms, 0643ms total)
T1B70 000:909 JLINK_WriteReg(R15 (PC), 0x20000078)  returns 0x00 (0000ms, 0643ms total)
T1B70 000:909 JLINK_WriteReg(XPSR, 0x01000000)  returns 0x00 (0000ms, 0643ms total)
T1B70 000:909 JLINK_WriteReg(MSP, 0x20001000)  returns 0x00 (0000ms, 0643ms total)
T1B70 000:909 JLINK_WriteReg(PSP, 0x20001000)  returns 0x00 (0000ms, 0643ms total)
T1B70 000:909 JLINK_WriteReg(CFBP, 0x00000000)  returns 0x00 (0000ms, 0643ms total)
T1B70 000:909 JLINK_SetBPEx(Addr = 0x20000000, Type = 0xFFFFFFF2)  returns 0x0000000E (0000ms, 0643ms total)
T1B70 000:909 JLINK_Go() (0001ms, 0644ms total)
T1B70 000:910 JLINK_IsHalted() -- CPU_ReadMem(2 bytes @ 0x20000000)  returns TRUE (0002ms, 0646ms total)
T1B70 000:912 JLINK_ReadReg(R15 (PC))  returns 0x20000000 (0000ms, 0644ms total)
T1B70 000:912 JLINK_ClrBPEx(BPHandle = 0x0000000E)  returns 0x00 (0000ms, 0644ms total)
T1B70 000:912 JLINK_ReadReg(R0)  returns 0x00000000 (0000ms, 0644ms total)
T1B70 000:912 JLINK_WriteReg(R0, 0x0000C000)  returns 0x00 (0000ms, 0644ms total)
T1B70 000:912 JLINK_WriteReg(R1, 0x00001000)  returns 0x00 (0000ms, 0644ms total)
T1B70 000:912 JLINK_WriteReg(R2, 0x000000FF)  returns 0x00 (0000ms, 0644ms total)
T1B70 000:912 JLINK_WriteReg(R3, 0x00000000)  returns 0x00 (0000ms, 0644ms total)
T1B70 000:912 JLINK_WriteReg(R4, 0x00000000)  returns 0x00 (0000ms, 0644ms total)
T1B70 000:912 JLINK_WriteReg(R5, 0x00000000)  returns 0x00 (0000ms, 0644ms total)
T1B70 000:912 JLINK_WriteReg(R6, 0x00000000)  returns 0x00 (0000ms, 0644ms total)
T1B70 000:912 JLINK_WriteReg(R7, 0x00000000)  returns 0x00 (0000ms, 0644ms total)
T1B70 000:912 JLINK_WriteReg(R8, 0x00000000)  returns 0x00 (0000ms, 0644ms total)
T1B70 000:912 JLINK_WriteReg(R9, 0x20000508)  returns 0x00 (0000ms, 0644ms total)
T1B70 000:912 JLINK_WriteReg(R10, 0x00000000)  returns 0x00 (0000ms, 0644ms total)
T1B70 000:912 JLINK_WriteReg(R11, 0x00000000)  returns 0x00 (0000ms, 0644ms total)
T1B70 000:912 JLINK_WriteReg(R12, 0x00000000)  returns 0x00 (0000ms, 0644ms total)
T1B70 000:912 JLINK_WriteReg(R13 (SP), 0x20001000)  returns 0x00 (0000ms, 0644ms total)
T1B70 000:912 JLINK_WriteReg(R14, 0x20000001)  returns 0x00 (0000ms, 0644ms total)
T1B70 000:912 JLINK_WriteReg(R15 (PC), 0x20000078)  returns 0x00 (0000ms, 0644ms total)
T1B70 000:912 JLINK_WriteReg(XPSR, 0x01000000)  returns 0x00 (0000ms, 0644ms total)
T1B70 000:912 JLINK_WriteReg(MSP, 0x20001000)  returns 0x00 (0000ms, 0644ms total)
T1B70 000:912 JLINK_WriteReg(PSP, 0x20001000)  returns 0x00 (0000ms, 0644ms total)
T1B70 000:912 JLINK_WriteReg(CFBP, 0x00000000)  returns 0x00 (0000ms, 0644ms total)
T1B70 000:912 JLINK_SetBPEx(Addr = 0x20000000, Type = 0xFFFFFFF2)  returns 0x0000000F (0000ms, 0644ms total)
T1B70 000:912 JLINK_Go() (0001ms, 0645ms total)
T1B70 000:913 JLINK_IsHalted() -- CPU_ReadMem(2 bytes @ 0x20000000)  returns TRUE (0002ms, 0647ms total)
T1B70 000:915 JLINK_ReadReg(R15 (PC))  returns 0x20000000 (0000ms, 0645ms total)
T1B70 000:915 JLINK_ClrBPEx(BPHandle = 0x0000000F)  returns 0x00 (0000ms, 0645ms total)
T1B70 000:915 JLINK_ReadReg(R0)  returns 0x00000000 (0000ms, 0645ms total)
T1B70 000:915 JLINK_WriteReg(R0, 0x0000D000)  returns 0x00 (0000ms, 0645ms total)
T1B70 000:915 JLINK_WriteReg(R1, 0x00001000)  returns 0x00 (0000ms, 0645ms total)
T1B70 000:915 JLINK_WriteReg(R2, 0x000000FF)  returns 0x00 (0000ms, 0645ms total)
T1B70 000:915 JLINK_WriteReg(R3, 0x00000000)  returns 0x00 (0000ms, 0645ms total)
T1B70 000:915 JLINK_WriteReg(R4, 0x00000000)  returns 0x00 (0000ms, 0645ms total)
T1B70 000:915 JLINK_WriteReg(R5, 0x00000000)  returns 0x00 (0000ms, 0645ms total)
T1B70 000:915 JLINK_WriteReg(R6, 0x00000000)  returns 0x00 (0000ms, 0645ms total)
T1B70 000:915 JLINK_WriteReg(R7, 0x00000000)  returns 0x00 (0000ms, 0645ms total)
T1B70 000:915 JLINK_WriteReg(R8, 0x00000000)  returns 0x00 (0000ms, 0645ms total)
T1B70 000:915 JLINK_WriteReg(R9, 0x20000508)  returns 0x00 (0000ms, 0645ms total)
T1B70 000:915 JLINK_WriteReg(R10, 0x00000000)  returns 0x00 (0000ms, 0645ms total)
T1B70 000:915 JLINK_WriteReg(R11, 0x00000000)  returns 0x00 (0000ms, 0645ms total)
T1B70 000:915 JLINK_WriteReg(R12, 0x00000000)  returns 0x00 (0000ms, 0645ms total)
T1B70 000:915 JLINK_WriteReg(R13 (SP), 0x20001000)  returns 0x00 (0000ms, 0645ms total)
T1B70 000:915 JLINK_WriteReg(R14, 0x20000001)  returns 0x00 (0000ms, 0645ms total)
T1B70 000:915 JLINK_WriteReg(R15 (PC), 0x20000078)  returns 0x00 (0000ms, 0645ms total)
T1B70 000:915 JLINK_WriteReg(XPSR, 0x01000000)  returns 0x00 (0000ms, 0645ms total)
T1B70 000:915 JLINK_WriteReg(MSP, 0x20001000)  returns 0x00 (0000ms, 0645ms total)
T1B70 000:915 JLINK_WriteReg(PSP, 0x20001000)  returns 0x00 (0000ms, 0645ms total)
T1B70 000:915 JLINK_WriteReg(CFBP, 0x00000000)  returns 0x00 (0000ms, 0645ms total)
T1B70 000:915 JLINK_SetBPEx(Addr = 0x20000000, Type = 0xFFFFFFF2)  returns 0x00000010 (0000ms, 0645ms total)
T1B70 000:916 JLINK_Go() (0001ms, 0646ms total)
T1B70 000:917 JLINK_IsHalted() -- CPU_ReadMem(2 bytes @ 0x20000000)  returns TRUE (0001ms, 0647ms total)
T1B70 000:918 JLINK_ReadReg(R15 (PC))  returns 0x20000000 (0000ms, 0646ms total)
T1B70 000:918 JLINK_ClrBPEx(BPHandle = 0x00000010)  returns 0x00 (0000ms, 0646ms total)
T1B70 000:918 JLINK_ReadReg(R0)  returns 0x00000000 (0000ms, 0646ms total)
T1B70 000:918 JLINK_WriteReg(R0, 0x0000E000)  returns 0x00 (0000ms, 0646ms total)
T1B70 000:918 JLINK_WriteReg(R1, 0x00001000)  returns 0x00 (0000ms, 0646ms total)
T1B70 000:918 JLINK_WriteReg(R2, 0x000000FF)  returns 0x00 (0000ms, 0646ms total)
T1B70 000:918 JLINK_WriteReg(R3, 0x00000000)  returns 0x00 (0000ms, 0646ms total)
T1B70 000:918 JLINK_WriteReg(R4, 0x00000000)  returns 0x00 (0000ms, 0646ms total)
T1B70 000:918 JLINK_WriteReg(R5, 0x00000000)  returns 0x00 (0000ms, 0646ms total)
T1B70 000:918 JLINK_WriteReg(R6, 0x00000000)  returns 0x00 (0000ms, 0646ms total)
T1B70 000:918 JLINK_WriteReg(R7, 0x00000000)  returns 0x00 (0000ms, 0646ms total)
T1B70 000:918 JLINK_WriteReg(R8, 0x00000000)  returns 0x00 (0000ms, 0646ms total)
T1B70 000:918 JLINK_WriteReg(R9, 0x20000508)  returns 0x00 (0000ms, 0646ms total)
T1B70 000:918 JLINK_WriteReg(R10, 0x00000000)  returns 0x00 (0000ms, 0646ms total)
T1B70 000:918 JLINK_WriteReg(R11, 0x00000000)  returns 0x00 (0000ms, 0646ms total)
T1B70 000:918 JLINK_WriteReg(R12, 0x00000000)  returns 0x00 (0000ms, 0646ms total)
T1B70 000:918 JLINK_WriteReg(R13 (SP), 0x20001000)  returns 0x00 (0000ms, 0646ms total)
T1B70 000:918 JLINK_WriteReg(R14, 0x20000001)  returns 0x00 (0000ms, 0646ms total)
T1B70 000:918 JLINK_WriteReg(R15 (PC), 0x20000078)  returns 0x00 (0000ms, 0646ms total)
T1B70 000:918 JLINK_WriteReg(XPSR, 0x01000000)  returns 0x00 (0000ms, 0646ms total)
T1B70 000:918 JLINK_WriteReg(MSP, 0x20001000)  returns 0x00 (0001ms, 0647ms total)
T1B70 000:919 JLINK_WriteReg(PSP, 0x20001000)  returns 0x00 (0000ms, 0647ms total)
T1B70 000:919 JLINK_WriteReg(CFBP, 0x00000000)  returns 0x00 (0000ms, 0647ms total)
T1B70 000:919 JLINK_SetBPEx(Addr = 0x20000000, Type = 0xFFFFFFF2)  returns 0x00000011 (0000ms, 0647ms total)
T1B70 000:919 JLINK_Go() (0000ms, 0647ms total)
T1B70 000:919 JLINK_IsHalted() -- CPU_ReadMem(2 bytes @ 0x20000000)  returns TRUE (0002ms, 0649ms total)
T1B70 000:921 JLINK_ReadReg(R15 (PC))  returns 0x20000000 (0000ms, 0647ms total)
T1B70 000:921 JLINK_ClrBPEx(BPHandle = 0x00000011)  returns 0x00 (0000ms, 0647ms total)
T1B70 000:921 JLINK_ReadReg(R0)  returns 0x00000000 (0000ms, 0647ms total)
T1B70 000:921 JLINK_WriteReg(R0, 0x0000F000)  returns 0x00 (0000ms, 0647ms total)
T1B70 000:921 JLINK_WriteReg(R1, 0x00001000)  returns 0x00 (0000ms, 0647ms total)
T1B70 000:921 JLINK_WriteReg(R2, 0x000000FF)  returns 0x00 (0000ms, 0647ms total)
T1B70 000:921 JLINK_WriteReg(R3, 0x00000000)  returns 0x00 (0000ms, 0647ms total)
T1B70 000:921 JLINK_WriteReg(R4, 0x00000000)  returns 0x00 (0000ms, 0647ms total)
T1B70 000:921 JLINK_WriteReg(R5, 0x00000000)  returns 0x00 (0000ms, 0647ms total)
T1B70 000:921 JLINK_WriteReg(R6, 0x00000000)  returns 0x00 (0000ms, 0647ms total)
T1B70 000:921 JLINK_WriteReg(R7, 0x00000000)  returns 0x00 (0000ms, 0647ms total)
T1B70 000:921 JLINK_WriteReg(R8, 0x00000000)  returns 0x00 (0000ms, 0647ms total)
T1B70 000:921 JLINK_WriteReg(R9, 0x20000508)  returns 0x00 (0000ms, 0647ms total)
T1B70 000:921 JLINK_WriteReg(R10, 0x00000000)  returns 0x00 (0001ms, 0648ms total)
T1B70 000:922 JLINK_WriteReg(R11, 0x00000000)  returns 0x00 (0000ms, 0648ms total)
T1B70 000:922 JLINK_WriteReg(R12, 0x00000000)  returns 0x00 (0000ms, 0648ms total)
T1B70 000:922 JLINK_WriteReg(R13 (SP), 0x20001000)  returns 0x00 (0000ms, 0648ms total)
T1B70 000:922 JLINK_WriteReg(R14, 0x20000001)  returns 0x00 (0000ms, 0648ms total)
T1B70 000:922 JLINK_WriteReg(R15 (PC), 0x20000078)  returns 0x00 (0000ms, 0648ms total)
T1B70 000:922 JLINK_WriteReg(XPSR, 0x01000000)  returns 0x00 (0000ms, 0648ms total)
T1B70 000:922 JLINK_WriteReg(MSP, 0x20001000)  returns 0x00 (0000ms, 0648ms total)
T1B70 000:922 JLINK_WriteReg(PSP, 0x20001000)  returns 0x00 (0000ms, 0648ms total)
T1B70 000:922 JLINK_WriteReg(CFBP, 0x00000000)  returns 0x00 (0000ms, 0648ms total)
T1B70 000:922 JLINK_SetBPEx(Addr = 0x20000000, Type = 0xFFFFFFF2)  returns 0x00000012 (0000ms, 0648ms total)
T1B70 000:922 JLINK_Go() (0001ms, 0649ms total)
T1B70 000:923 JLINK_IsHalted() -- CPU_ReadMem(2 bytes @ 0x20000000)  returns TRUE (0001ms, 0650ms total)
T1B70 000:924 JLINK_ReadReg(R15 (PC))  returns 0x20000000 (0000ms, 0649ms total)
T1B70 000:924 JLINK_ClrBPEx(BPHandle = 0x00000012)  returns 0x00 (0000ms, 0649ms total)
T1B70 000:924 JLINK_ReadReg(R0)  returns 0x00000000 (0000ms, 0649ms total)
T1B70 000:925 JLINK_WriteReg(R0, 0x00010000)  returns 0x00 (0000ms, 0649ms total)
T1B70 000:925 JLINK_WriteReg(R1, 0x00001000)  returns 0x00 (0000ms, 0649ms total)
T1B70 000:925 JLINK_WriteReg(R2, 0x000000FF)  returns 0x00 (0000ms, 0649ms total)
T1B70 000:925 JLINK_WriteReg(R3, 0x00000000)  returns 0x00 (0000ms, 0649ms total)
T1B70 000:925 JLINK_WriteReg(R4, 0x00000000)  returns 0x00 (0000ms, 0649ms total)
T1B70 000:925 JLINK_WriteReg(R5, 0x00000000)  returns 0x00 (0000ms, 0649ms total)
T1B70 000:925 JLINK_WriteReg(R6, 0x00000000)  returns 0x00 (0000ms, 0649ms total)
T1B70 000:925 JLINK_WriteReg(R7, 0x00000000)  returns 0x00 (0000ms, 0649ms total)
T1B70 000:925 JLINK_WriteReg(R8, 0x00000000)  returns 0x00 (0000ms, 0649ms total)
T1B70 000:925 JLINK_WriteReg(R9, 0x20000508)  returns 0x00 (0000ms, 0649ms total)
T1B70 000:925 JLINK_WriteReg(R10, 0x00000000)  returns 0x00 (0000ms, 0649ms total)
T1B70 000:925 JLINK_WriteReg(R11, 0x00000000)  returns 0x00 (0000ms, 0649ms total)
T1B70 000:925 JLINK_WriteReg(R12, 0x00000000)  returns 0x00 (0000ms, 0649ms total)
T1B70 000:925 JLINK_WriteReg(R13 (SP), 0x20001000)  returns 0x00 (0000ms, 0649ms total)
T1B70 000:925 JLINK_WriteReg(R14, 0x20000001)  returns 0x00 (0000ms, 0649ms total)
T1B70 000:925 JLINK_WriteReg(R15 (PC), 0x20000078)  returns 0x00 (0000ms, 0649ms total)
T1B70 000:925 JLINK_WriteReg(XPSR, 0x01000000)  returns 0x00 (0000ms, 0649ms total)
T1B70 000:925 JLINK_WriteReg(MSP, 0x20001000)  returns 0x00 (0000ms, 0649ms total)
T1B70 000:925 JLINK_WriteReg(PSP, 0x20001000)  returns 0x00 (0000ms, 0649ms total)
T1B70 000:925 JLINK_WriteReg(CFBP, 0x00000000)  returns 0x00 (0000ms, 0649ms total)
T1B70 000:925 JLINK_SetBPEx(Addr = 0x20000000, Type = 0xFFFFFFF2)  returns 0x00000013 (0000ms, 0649ms total)
T1B70 000:925 JLINK_Go() (0002ms, 0651ms total)
T1B70 000:927 JLINK_IsHalted() -- CPU_ReadMem(2 bytes @ 0x20000000)  returns TRUE (0001ms, 0652ms total)
T1B70 000:928 JLINK_ReadReg(R15 (PC))  returns 0x20000000 (0000ms, 0651ms total)
T1B70 000:928 JLINK_ClrBPEx(BPHandle = 0x00000013)  returns 0x00 (0000ms, 0651ms total)
T1B70 000:928 JLINK_ReadReg(R0)  returns 0x00000000 (0000ms, 0651ms total)
T1B70 000:928 JLINK_WriteReg(R0, 0x00011000)  returns 0x00 (0000ms, 0651ms total)
T1B70 000:928 JLINK_WriteReg(R1, 0x00001000)  returns 0x00 (0000ms, 0651ms total)
T1B70 000:928 JLINK_WriteReg(R2, 0x000000FF)  returns 0x00 (0000ms, 0651ms total)
T1B70 000:928 JLINK_WriteReg(R3, 0x00000000)  returns 0x00 (0000ms, 0651ms total)
T1B70 000:928 JLINK_WriteReg(R4, 0x00000000)  returns 0x00 (0000ms, 0651ms total)
T1B70 000:928 JLINK_WriteReg(R5, 0x00000000)  returns 0x00 (0000ms, 0651ms total)
T1B70 000:928 JLINK_WriteReg(R6, 0x00000000)  returns 0x00 (0000ms, 0651ms total)
